
T20A8 000:427 SEGGER J-Link V4.80g Log File (0001ms, 0265ms total)
T20A8 000:427 DLL Compiled: Feb 13 2014 20:50:02 (0001ms, 0265ms total)
T20A8 000:427 Logging started @ 2016-10-31 18:30 (0001ms, 0265ms total)
T20A8 000:428 JLINK_SetWarnOutHandler(...) (0000ms, 0265ms total)
T20A8 000:428 JLINK_OpenEx(...)
Firmware: J-Link ARM V8 compiled Nov 28 2014 13:44:46
Hardware: V8.00
S/N: 959985457
Feature(s): RDI,FlashDL,FlashBP,JFlash,GDBFULL  returns O.K. (0266ms, 0531ms total)
T20A8 000:694 JLINK_SetErrorOutHandler(...) (0000ms, 0531ms total)
T20A8 000:694 JLINK_ExecCommand("ProjectFile = "D:\大学所做项目代码汇总\基于STM32的四轴飞行器\Project\RVMDK（uv4）\JLinkSettings.ini"", ...)  returns 0x00 (0001ms, 0532ms total)
T20A8 000:702 JLINK_ExecCommand("Device = STM32F103ZE", ...)Device "STM32F103ZE" selected (512 KB flash, 64 KB RAM).  returns 0x00 (0014ms, 0546ms total)
T20A8 000:716 JLINK_ExecCommand("DisableConnectionTimeout", ...)  returns 0x01 (0000ms, 0546ms total)
T20A8 000:716 JLINK_GetHardwareVersion()  returns 0x13880 (0000ms, 0546ms total)
T20A8 000:716 JLINK_GetDLLVersion()  returns 48007 (0000ms, 0546ms total)
T20A8 000:716 JLINK_GetFirmwareString(...) (0000ms, 0546ms total)
T20A8 000:727 JLINK_GetDLLVersion()  returns 48007 (0000ms, 0546ms total)
T20A8 000:727 JLINK_GetCompileDateTime() (0000ms, 0546ms total)
T20A8 000:730 JLINK_GetFirmwareString(...) (0000ms, 0546ms total)
T20A8 000:731 JLINK_GetHardwareVersion()  returns 0x13880 (0000ms, 0546ms total)
T20A8 000:737 JLINK_TIF_Select(JLINKARM_TIF_JTAG)  returns 0x00 (0001ms, 0547ms total)
T20A8 000:738 JLINK_SetSpeed(5000) (0000ms, 0547ms total)
T20A8 000:738 JLINK_GetIdData(...) >0x2F8 JTAG>TotalIRLen = 9, IRPrint = 0x0011 >0x30 JTAG> >0x210 JTAG> >0x40 JTAG> >0x40 JTAG> >0x40 JTAG> >0x30 JTAG> >0x40 JTAG> >0x40 JTAG> >0x40 JTAG> >0x40 JTAG> >0x40 JTAG> >0x40 JTAG> >0x40 JTAG> >0x40 JTAG> >0x40 JTAG> >0x40 JTAG> >0x2F8 JTAG>TotalIRLen = 9, IRPrint = 0x0011 >0x30 JTAG> >0x210 JTAG> >0x70 JTAG> >0x40 JTAG> >0x40 JTAG> >0x40 JTAG> >0x50 JTAG> >0x80 JTAG> >0x40 JTAG> >0x30 JTAG> >0x40 JTAG> >0x40 JTAG> >0x30 JTAG> >0x40 JTAG> >0x50 JTAG>
Found Cortex-M3 r1p1, Little endian. -- CPU_WriteMem(4 bytes @ 0xE0002000) -- CPU_ReadMem(4 bytes @ 0xE000EDF0) -- CPU_WriteMem(4 bytes @ 0xE000EDF0) -- CPU_ReadMem(4 bytes @ 0xE0002000)FPUnit: 6 code (BP) slots and 2 literal slots -- CPU_ReadMem(4 bytes @ 0xE000EDFC) -- CPU_WriteMem(4 bytes @ 0xE000EDFC) -- CPU_ReadMem(4 bytes @ 0xE0001000) -- CPU_WriteMem(4 bytes @ 0xE0001000) -- CPU_ReadMem(4 bytes @ 0xE00FF010)TPIU fitted. -- CPU_ReadMem(4 bytes @ 0xE00FF014)ETM fitted.
 -- CPU_ReadMem(4 bytes @ 0xE00FF018) ScanLen=9 NumDevices=2 aId[0]=0x3BA00477 aIrRead[0]=0 aScanLen[0]=0 aScanRead[0]=0 (0028ms, 0575ms total)
T20A8 000:766 JLINK_JTAG_GetDeviceID(DeviceIndex = 0)  returns 0x3BA00477 (0000ms, 0575ms total)
T20A8 000:766 JLINK_JTAG_GetDeviceInfo(DeviceIndex = 0)  returns 0x00 (0000ms, 0575ms total)
T20A8 000:766 JLINK_JTAG_GetDeviceID(DeviceIndex = 1)  returns 0x6414041 (0000ms, 0575ms total)
T20A8 000:766 JLINK_JTAG_GetDeviceInfo(DeviceIndex = 1)  returns 0x00 (0000ms, 0575ms total)
T20A8 000:766 JLINK_GetDeviceFamily()  returns 3 (0000ms, 0575ms total)
T20A8 000:768 JLINK_ReadMem (0xE00FFFF0, 0x0010 Bytes, ...) -- CPU is running -- CPU_ReadMem(16 bytes @ 0xE00FFFF0) -- Data:  0D 00 00 00 10 00 00 00 05 00 00 00 B1 00 00 00  returns 0x00 (0000ms, 0575ms total)
T20A8 000:768 JLINK_ReadMem (0xE00FFFD0, 0x0020 Bytes, ...) -- CPU is running -- CPU_ReadMem(32 bytes @ 0xE00FFFD0) -- Data:  00 00 00 00 00 00 00 00 00 00 00 00 00 00 00 00 ...  returns 0x00 (0002ms, 0577ms total)
T20A8 000:770 JLINK_ReadMem (0xE00FF000, 0x0018 Bytes, ...) -- CPU is running -- CPU_ReadMem(24 bytes @ 0xE00FF000) -- Data:  03 F0 F0 FF 03 20 F0 FF 03 30 F0 FF 03 10 F0 FF ...  returns 0x00 (0000ms, 0577ms total)
T20A8 000:770 JLINK_ReadMemU32(0xE000ED00, 0x0001 Items, ...) -- CPU is running -- CPU_ReadMem(4 bytes @ 0xE000ED00) -- Data:  31 C2 1F 41  returns 0x01 (0000ms, 0577ms total)
T20A8 000:770 JLINK_SetResetType(JLINKARM_RESET_TYPE_NORMAL)  returns JLINKARM_RESET_TYPE_NORMAL (0000ms, 0577ms total)
T20A8 000:770 JLINK_Reset() -- CPU is running -- CPU_WriteMem(4 bytes @ 0xE000EDF0) -- CPU is running -- CPU_WriteMem(4 bytes @ 0xE000EDFC) -- CPU is running -- CPU_WriteMem(4 bytes @ 0xE000ED0C) -- CPU is running -- CPU_ReadMem(4 bytes @ 0xE000EDF0) -- CPU is running -- CPU_ReadMem(4 bytes @ 0xE000EDF0) -- CPU is running -- CPU_WriteMem(4 bytes @ 0xE000EDF0) -- CPU is running -- CPU_WriteMem(4 bytes @ 0xE000EDFC) -- CPU is running -- CPU_ReadMem(4 bytes @ 0xE000EDF0) >0x80 JTAG> >0x40 JTAG> >0x30 JTAG>
 >0x40 JTAG> >0x50 JTAG> >0x40 JTAG> -- CPU_WriteMem(4 bytes @ 0xE000EDFC) -- CPU_WriteMem(4 bytes @ 0xE0001028) -- CPU_WriteMem(4 bytes @ 0xE0001038) -- CPU_WriteMem(4 bytes @ 0xE0001048) -- CPU_WriteMem(4 bytes @ 0xE0001058) -- CPU_WriteMem(4 bytes @ 0xE0002000) -- CPU_ReadMem(4 bytes @ 0xE000EDFC) -- CPU_ReadMem(4 bytes @ 0xE0001000) (0025ms, 0602ms total)
T20A8 000:795 JLINK_Halt()  returns 0x00 (0000ms, 0602ms total)
T20A8 000:795 JLINK_IsHalted()  returns TRUE (0001ms, 0603ms total)
T20A8 000:796 JLINK_ReadMemU32(0xE000EDF0, 0x0001 Items, ...) -- CPU_ReadMem(4 bytes @ 0xE000EDF0) -- Data:  03 00 03 00  returns 0x01 (0000ms, 0602ms total)
T20A8 000:796 JLINK_WriteU32(0xE000EDF0, 0xA05F0003) -- CPU_WriteMem(4 bytes @ 0xE000EDF0)  returns 0x00 (0000ms, 0602ms total)
T20A8 000:796 JLINK_WriteU32(0xE000EDFC, 0x01000000) -- CPU_WriteMem(4 bytes @ 0xE000EDFC)  returns 0x00 (0001ms, 0603ms total)
T20A8 000:800 JLINK_GetHWStatus(...)  returns 0x00 (0000ms, 0603ms total)
T20A8 000:805 JLINK_GetNumBPUnits(Type = 0xFFFFFF00)  returns 0x06 (0000ms, 0603ms total)
T20A8 000:805 JLINK_GetNumBPUnits(Type = 0xF0)  returns 0x2000 (0000ms, 0603ms total)
T20A8 000:805 JLINK_GetNumWPUnits()  returns 0x04 (0000ms, 0603ms total)
T20A8 000:809 JLINK_GetSpeed()  returns 0x12C0 (0000ms, 0603ms total)
T20A8 000:811 JLINK_ReadMemU32(0xE000E004, 0x0001 Items, ...) -- CPU_ReadMem(4 bytes @ 0xE000E004) -- Data:  01 00 00 00  returns 0x01 (0001ms, 0604ms total)
T20A8 000:812 JLINK_ReadMemU32(0xE000E004, 0x0001 Items, ...) -- CPU_ReadMem(4 bytes @ 0xE000E004) -- Data:  01 00 00 00  returns 0x01 (0001ms, 0605ms total)
T20A8 000:813 JLINK_WriteMem(0xE0001000, 0x001C Bytes, ...) -- Data:  01 00 00 00 00 00 00 00 00 00 00 00 00 00 00 00 ... -- CPU_WriteMem(28 bytes @ 0xE0001000)  returns 0x1C (0000ms, 0605ms total)
T20A8 000:814 JLINK_ReadMem (0xE0001000, 0x001C Bytes, ...) -- CPU_ReadMem(28 bytes @ 0xE0001000) -- Data:  01 00 00 40 00 00 00 00 00 00 00 00 00 00 00 00 ...  returns 0x00 (0000ms, 0606ms total)
T20A8 000:814 JLINK_Halt()  returns 0x00 (0000ms, 0606ms total)
T20A8 000:815 JLINK_IsHalted()  returns TRUE (0000ms, 0607ms total)
T20A8 000:821 JLINK_WriteMem(0x20000000, 0x0164 Bytes, ...) -- Data:  00 BE 0A E0 0D 78 2D 06 68 40 08 24 40 00 00 D3 ... -- CPU_WriteMem(356 bytes @ 0x20000000)  returns 0x164 (0004ms, 0611ms total)
T20A8 000:825 JLINK_WriteReg(R0, 0x08000000)  returns 0x00 (0000ms, 0611ms total)
T20A8 000:825 JLINK_WriteReg(R1, 0x00B71B00)  returns 0x00 (0000ms, 0611ms total)
T20A8 000:825 JLINK_WriteReg(R2, 0x00000001)  returns 0x00 (0000ms, 0611ms total)
T20A8 000:825 JLINK_WriteReg(R3, 0x00000000)  returns 0x00 (0000ms, 0611ms total)
T20A8 000:825 JLINK_WriteReg(R4, 0x00000000)  returns 0x00 (0000ms, 0611ms total)
T20A8 000:825 JLINK_WriteReg(R5, 0x00000000)  returns 0x00 (0000ms, 0611ms total)
T20A8 000:825 JLINK_WriteReg(R6, 0x00000000)  returns 0x00 (0000ms, 0611ms total)
T20A8 000:825 JLINK_WriteReg(R7, 0x00000000)  returns 0x00 (0000ms, 0611ms total)
T20A8 000:825 JLINK_WriteReg(R8, 0x00000000)  returns 0x00 (0000ms, 0611ms total)
T20A8 000:825 JLINK_WriteReg(R9, 0x20000160)  returns 0x00 (0000ms, 0611ms total)
T20A8 000:825 JLINK_WriteReg(R10, 0x00000000)  returns 0x00 (0000ms, 0611ms total)
T20A8 000:825 JLINK_WriteReg(R11, 0x00000000)  returns 0x00 (0000ms, 0611ms total)
T20A8 000:825 JLINK_WriteReg(R12, 0x00000000)  returns 0x00 (0000ms, 0611ms total)
T20A8 000:825 JLINK_WriteReg(R13 (SP), 0x20000800)  returns 0x00 (0000ms, 0611ms total)
T20A8 000:825 JLINK_WriteReg(R14, 0x20000001)  returns 0x00 (0000ms, 0611ms total)
T20A8 000:825 JLINK_WriteReg(R15 (PC), 0x20000038)  returns 0x00 (0000ms, 0611ms total)
T20A8 000:825 JLINK_WriteReg(XPSR, 0x01000000)  returns 0x00 (0000ms, 0611ms total)
T20A8 000:825 JLINK_WriteReg(MSP, 0x20000800)  returns 0x00 (0000ms, 0611ms total)
T20A8 000:825 JLINK_WriteReg(PSP, 0x20000800)  returns 0x00 (0000ms, 0611ms total)
T20A8 000:825 JLINK_WriteReg(CFBP, 0x00000000)  returns 0x00 (0000ms, 0611ms total)
T20A8 000:825 JLINK_SetBPEx(Addr = 0x20000000, Type = 0xFFFFFFF2) -- CPU_ReadMem(2 bytes @ 0x20000000)  returns 0x00000001 (0001ms, 0612ms total)
T20A8 000:826 JLINK_Go() -- CPU_WriteMem(2 bytes @ 0x20000000) -- CPU_WriteMem(4 bytes @ 0xE0002008) -- CPU_WriteMem(4 bytes @ 0xE000200C) -- CPU_WriteMem(4 bytes @ 0xE0002010) -- CPU_WriteMem(4 bytes @ 0xE0002014) -- CPU_WriteMem(4 bytes @ 0xE0002018) -- CPU_WriteMem(4 bytes @ 0xE000201C) -- CPU_WriteMem(4 bytes @ 0xE0001004) (0006ms, 0618ms total)
T20A8 000:832 JLINK_IsHalted() -- CPU_ReadMem(2 bytes @ 0x20000000)  returns TRUE (0003ms, 0621ms total)
T20A8 000:835 JLINK_ReadReg(R15 (PC))  returns 0x20000000 (0000ms, 0618ms total)
T20A8 000:835 JLINK_ClrBPEx(BPHandle = 0x00000001)  returns 0x00 (0000ms, 0618ms total)
T20A8 000:835 JLINK_ReadReg(R0)  returns 0x00000000 (0000ms, 0618ms total)
T20A8 000:836 JLINK_WriteReg(R0, 0x08000000)  returns 0x00 (0000ms, 0618ms total)
T20A8 000:836 JLINK_WriteReg(R1, 0x00B71B00)  returns 0x00 (0000ms, 0618ms total)
T20A8 000:836 JLINK_WriteReg(R2, 0x00000001)  returns 0x00 (0000ms, 0618ms total)
T20A8 000:836 JLINK_WriteReg(R3, 0x00000000)  returns 0x00 (0000ms, 0618ms total)
T20A8 000:836 JLINK_WriteReg(R4, 0x00000000)  returns 0x00 (0000ms, 0618ms total)
T20A8 000:836 JLINK_WriteReg(R5, 0x00000000)  returns 0x00 (0000ms, 0618ms total)
T20A8 000:836 JLINK_WriteReg(R6, 0x00000000)  returns 0x00 (0000ms, 0618ms total)
T20A8 000:836 JLINK_WriteReg(R7, 0x00000000)  returns 0x00 (0000ms, 0618ms total)
T20A8 000:836 JLINK_WriteReg(R8, 0x00000000)  returns 0x00 (0000ms, 0618ms total)
T20A8 000:836 JLINK_WriteReg(R9, 0x20000160)  returns 0x00 (0000ms, 0618ms total)
T20A8 000:836 JLINK_WriteReg(R10, 0x00000000)  returns 0x00 (0000ms, 0618ms total)
T20A8 000:836 JLINK_WriteReg(R11, 0x00000000)  returns 0x00 (0000ms, 0618ms total)
T20A8 000:836 JLINK_WriteReg(R12, 0x00000000)  returns 0x00 (0000ms, 0618ms total)
T20A8 000:836 JLINK_WriteReg(R13 (SP), 0x20000800)  returns 0x00 (0000ms, 0618ms total)
T20A8 000:836 JLINK_WriteReg(R14, 0x20000001)  returns 0x00 (0000ms, 0618ms total)
T20A8 000:836 JLINK_WriteReg(R15 (PC), 0x2000007C)  returns 0x00 (0000ms, 0618ms total)
T20A8 000:836 JLINK_WriteReg(XPSR, 0x01000000)  returns 0x00 (0000ms, 0618ms total)
T20A8 000:836 JLINK_WriteReg(MSP, 0x20000800)  returns 0x00 (0000ms, 0618ms total)
T20A8 000:836 JLINK_WriteReg(PSP, 0x20000800)  returns 0x00 (0000ms, 0618ms total)
T20A8 000:836 JLINK_WriteReg(CFBP, 0x00000000)  returns 0x00 (0000ms, 0618ms total)
T20A8 000:836 JLINK_SetBPEx(Addr = 0x20000000, Type = 0xFFFFFFF2)  returns 0x00000002 (0000ms, 0618ms total)
T20A8 000:836 JLINK_Go() (0001ms, 0619ms total)
T20A8 000:837 JLINK_IsHalted()  returns FALSE (0001ms, 0620ms total)
T20A8 000:885 JLINK_IsHalted() -- CPU_ReadMem(2 bytes @ 0x20000000)  returns TRUE (0003ms, 0622ms total)
T20A8 000:888 JLINK_ReadReg(R15 (PC))  returns 0x20000000 (0000ms, 0619ms total)
T20A8 000:888 JLINK_ClrBPEx(BPHandle = 0x00000002)  returns 0x00 (0000ms, 0619ms total)
T20A8 000:888 JLINK_ReadReg(R0)  returns 0x00000000 (0000ms, 0619ms total)
T20A8 000:941 JLINK_WriteReg(R0, 0x00000001)  returns 0x00 (0000ms, 0619ms total)
T20A8 000:941 JLINK_WriteReg(R1, 0x00B71B00)  returns 0x00 (0000ms, 0619ms total)
T20A8 000:941 JLINK_WriteReg(R2, 0x00000001)  returns 0x00 (0000ms, 0619ms total)
T20A8 000:941 JLINK_WriteReg(R3, 0x00000000)  returns 0x00 (0000ms, 0619ms total)
T20A8 000:941 JLINK_WriteReg(R4, 0x00000000)  returns 0x00 (0000ms, 0619ms total)
T20A8 000:941 JLINK_WriteReg(R5, 0x00000000)  returns 0x00 (0000ms, 0619ms total)
T20A8 000:941 JLINK_WriteReg(R6, 0x00000000)  returns 0x00 (0000ms, 0619ms total)
T20A8 000:941 JLINK_WriteReg(R7, 0x00000000)  returns 0x00 (0000ms, 0619ms total)
T20A8 000:941 JLINK_WriteReg(R8, 0x00000000)  returns 0x00 (0000ms, 0619ms total)
T20A8 000:941 JLINK_WriteReg(R9, 0x20000160)  returns 0x00 (0000ms, 0619ms total)
T20A8 000:941 JLINK_WriteReg(R10, 0x00000000)  returns 0x00 (0000ms, 0619ms total)
T20A8 000:941 JLINK_WriteReg(R11, 0x00000000)  returns 0x00 (0000ms, 0619ms total)
T20A8 000:941 JLINK_WriteReg(R12, 0x00000000)  returns 0x00 (0000ms, 0619ms total)
T20A8 000:941 JLINK_WriteReg(R13 (SP), 0x20000800)  returns 0x00 (0000ms, 0619ms total)
T20A8 000:941 JLINK_WriteReg(R14, 0x20000001)  returns 0x00 (0000ms, 0619ms total)
T20A8 000:941 JLINK_WriteReg(R15 (PC), 0x2000006A)  returns 0x00 (0000ms, 0619ms total)
T20A8 000:941 JLINK_WriteReg(XPSR, 0x01000000)  returns 0x00 (0000ms, 0619ms total)
T20A8 000:941 JLINK_WriteReg(MSP, 0x20000800)  returns 0x00 (0000ms, 0619ms total)
T20A8 000:941 JLINK_WriteReg(PSP, 0x20000800)  returns 0x00 (0000ms, 0619ms total)
T20A8 000:941 JLINK_WriteReg(CFBP, 0x00000000)  returns 0x00 (0000ms, 0619ms total)
T20A8 000:941 JLINK_SetBPEx(Addr = 0x20000000, Type = 0xFFFFFFF2)  returns 0x00000003 (0000ms, 0619ms total)
T20A8 000:941 JLINK_Go() (0002ms, 0621ms total)
T20A8 000:943 JLINK_IsHalted() -- CPU_ReadMem(2 bytes @ 0x20000000)  returns TRUE (0003ms, 0624ms total)
T20A8 000:946 JLINK_ReadReg(R15 (PC))  returns 0x20000000 (0000ms, 0621ms total)
T20A8 000:946 JLINK_ClrBPEx(BPHandle = 0x00000003)  returns 0x00 (0000ms, 0621ms total)
T20A8 000:946 JLINK_ReadReg(R0)  returns 0x00000000 (0000ms, 0621ms total)
T20A8 000:953 JLINK_WriteMem(0x20000000, 0x0164 Bytes, ...) -- Data:  00 BE 0A E0 0D 78 2D 06 68 40 08 24 40 00 00 D3 ... -- CPU_WriteMem(356 bytes @ 0x20000000)  returns 0x164 (0003ms, 0624ms total)
T20A8 000:956 JLINK_WriteReg(R0, 0x08000000)  returns 0x00 (0000ms, 0624ms total)
T20A8 000:956 JLINK_WriteReg(R1, 0x00B71B00)  returns 0x00 (0000ms, 0624ms total)
T20A8 000:956 JLINK_WriteReg(R2, 0x00000002)  returns 0x00 (0001ms, 0625ms total)
T20A8 000:957 JLINK_WriteReg(R3, 0x00000000)  returns 0x00 (0000ms, 0625ms total)
T20A8 000:957 JLINK_WriteReg(R4, 0x00000000)  returns 0x00 (0000ms, 0625ms total)
T20A8 000:957 JLINK_WriteReg(R5, 0x00000000)  returns 0x00 (0000ms, 0625ms total)
T20A8 000:957 JLINK_WriteReg(R6, 0x00000000)  returns 0x00 (0000ms, 0625ms total)
T20A8 000:957 JLINK_WriteReg(R7, 0x00000000)  returns 0x00 (0000ms, 0625ms total)
T20A8 000:957 JLINK_WriteReg(R8, 0x00000000)  returns 0x00 (0000ms, 0625ms total)
T20A8 000:957 JLINK_WriteReg(R9, 0x20000160)  returns 0x00 (0000ms, 0625ms total)
T20A8 000:957 JLINK_WriteReg(R10, 0x00000000)  returns 0x00 (0000ms, 0625ms total)
T20A8 000:957 JLINK_WriteReg(R11, 0x00000000)  returns 0x00 (0000ms, 0625ms total)
T20A8 000:957 JLINK_WriteReg(R12, 0x00000000)  returns 0x00 (0000ms, 0625ms total)
T20A8 000:957 JLINK_WriteReg(R13 (SP), 0x20000800)  returns 0x00 (0000ms, 0625ms total)
T20A8 000:957 JLINK_WriteReg(R14, 0x20000001)  returns 0x00 (0000ms, 0625ms total)
T20A8 000:957 JLINK_WriteReg(R15 (PC), 0x20000038)  returns 0x00 (0000ms, 0625ms total)
T20A8 000:957 JLINK_WriteReg(XPSR, 0x01000000)  returns 0x00 (0000ms, 0625ms total)
T20A8 000:957 JLINK_WriteReg(MSP, 0x20000800)  returns 0x00 (0001ms, 0626ms total)
T20A8 000:958 JLINK_WriteReg(PSP, 0x20000800)  returns 0x00 (0000ms, 0626ms total)
T20A8 000:958 JLINK_WriteReg(CFBP, 0x00000000)  returns 0x00 (0000ms, 0626ms total)
T20A8 000:958 JLINK_SetBPEx(Addr = 0x20000000, Type = 0xFFFFFFF2) -- CPU_ReadMem(2 bytes @ 0x20000000)  returns 0x00000004 (0000ms, 0626ms total)
T20A8 000:958 JLINK_Go() -- CPU_WriteMem(2 bytes @ 0x20000000) (0003ms, 0629ms total)
T20A8 000:961 JLINK_IsHalted() -- CPU_ReadMem(2 bytes @ 0x20000000)  returns TRUE (0004ms, 0633ms total)
T20A8 000:965 JLINK_ReadReg(R15 (PC))  returns 0x20000000 (0000ms, 0629ms total)
T20A8 000:965 JLINK_ClrBPEx(BPHandle = 0x00000004)  returns 0x00 (0000ms, 0629ms total)
T20A8 000:965 JLINK_ReadReg(R0)  returns 0x00000000 (0000ms, 0629ms total)
T20A8 000:966 JLINK_WriteMem(0x20000164, 0x0400 Bytes, ...) -- Data:  28 3F 00 20 45 01 00 08 A1 1D 00 08 A3 1D 00 08 ... -- CPU_WriteMem(1024 bytes @ 0x20000164)  returns 0x400 (0008ms, 0637ms total)
T20A8 000:974 JLINK_WriteReg(R0, 0x08000000)  returns 0x00 (0000ms, 0637ms total)
T20A8 000:974 JLINK_WriteReg(R1, 0x00000400)  returns 0x00 (0000ms, 0637ms total)
T20A8 000:974 JLINK_WriteReg(R2, 0x20000164)  returns 0x00 (0000ms, 0637ms total)
T20A8 000:974 JLINK_WriteReg(R3, 0x00000000)  returns 0x00 (0000ms, 0637ms total)
T20A8 000:974 JLINK_WriteReg(R4, 0x00000000)  returns 0x00 (0000ms, 0637ms total)
T20A8 000:974 JLINK_WriteReg(R5, 0x00000000)  returns 0x00 (0000ms, 0637ms total)
T20A8 000:974 JLINK_WriteReg(R6, 0x00000000)  returns 0x00 (0000ms, 0637ms total)
T20A8 000:974 JLINK_WriteReg(R7, 0x00000000)  returns 0x00 (0000ms, 0637ms total)
T20A8 000:974 JLINK_WriteReg(R8, 0x00000000)  returns 0x00 (0000ms, 0637ms total)
T20A8 000:974 JLINK_WriteReg(R9, 0x20000160)  returns 0x00 (0000ms, 0637ms total)
T20A8 000:974 JLINK_WriteReg(R10, 0x00000000)  returns 0x00 (0000ms, 0637ms total)
T20A8 000:974 JLINK_WriteReg(R11, 0x00000000)  returns 0x00 (0000ms, 0637ms total)
T20A8 000:974 JLINK_WriteReg(R12, 0x00000000)  returns 0x00 (0000ms, 0637ms total)
T20A8 000:974 JLINK_WriteReg(R13 (SP), 0x20000800)  returns 0x00 (0000ms, 0637ms total)
T20A8 000:974 JLINK_WriteReg(R14, 0x20000001)  returns 0x00 (0000ms, 0637ms total)
T20A8 000:974 JLINK_WriteReg(R15 (PC), 0x200000F4)  returns 0x00 (0001ms, 0638ms total)
T20A8 000:975 JLINK_WriteReg(XPSR, 0x01000000)  returns 0x00 (0000ms, 0638ms total)
T20A8 000:975 JLINK_WriteReg(MSP, 0x20000800)  returns 0x00 (0000ms, 0638ms total)
T20A8 000:975 JLINK_WriteReg(PSP, 0x20000800)  returns 0x00 (0000ms, 0638ms total)
T20A8 000:975 JLINK_WriteReg(CFBP, 0x00000000)  returns 0x00 (0000ms, 0638ms total)
T20A8 000:975 JLINK_SetBPEx(Addr = 0x20000000, Type = 0xFFFFFFF2)  returns 0x00000005 (0000ms, 0638ms total)
T20A8 000:975 JLINK_Go() (0001ms, 0639ms total)
T20A8 000:976 JLINK_IsHalted()  returns FALSE (0001ms, 0640ms total)
T20A8 001:018 JLINK_IsHalted() -- CPU_ReadMem(2 bytes @ 0x20000000)  returns TRUE (0003ms, 0642ms total)
T20A8 001:021 JLINK_ReadReg(R15 (PC))  returns 0x20000000 (0000ms, 0639ms total)
T20A8 001:021 JLINK_ClrBPEx(BPHandle = 0x00000005)  returns 0x00 (0001ms, 0640ms total)
T20A8 001:022 JLINK_ReadReg(R0)  returns 0x00000000 (0000ms, 0640ms total)
T20A8 001:022 JLINK_WriteMem(0x20000164, 0x0400 Bytes, ...) -- Data:  09 69 21 F0 04 01 4F F0 E0 22 11 61 70 47 00 00 ... -- CPU_WriteMem(1024 bytes @ 0x20000164)  returns 0x400 (0008ms, 0648ms total)
T20A8 001:030 JLINK_WriteReg(R0, 0x08000400)  returns 0x00 (0000ms, 0648ms total)
T20A8 001:030 JLINK_WriteReg(R1, 0x00000400)  returns 0x00 (0000ms, 0648ms total)
T20A8 001:031 JLINK_WriteReg(R2, 0x20000164)  returns 0x00 (0000ms, 0648ms total)
T20A8 001:031 JLINK_WriteReg(R3, 0x00000000)  returns 0x00 (0000ms, 0648ms total)
T20A8 001:031 JLINK_WriteReg(R4, 0x00000000)  returns 0x00 (0000ms, 0648ms total)
T20A8 001:031 JLINK_WriteReg(R5, 0x00000000)  returns 0x00 (0000ms, 0648ms total)
T20A8 001:031 JLINK_WriteReg(R6, 0x00000000)  returns 0x00 (0000ms, 0648ms total)
T20A8 001:031 JLINK_WriteReg(R7, 0x00000000)  returns 0x00 (0000ms, 0648ms total)
T20A8 001:031 JLINK_WriteReg(R8, 0x00000000)  returns 0x00 (0000ms, 0648ms total)
T20A8 001:031 JLINK_WriteReg(R9, 0x20000160)  returns 0x00 (0000ms, 0648ms total)
T20A8 001:031 JLINK_WriteReg(R10, 0x00000000)  returns 0x00 (0000ms, 0648ms total)
T20A8 001:031 JLINK_WriteReg(R11, 0x00000000)  returns 0x00 (0000ms, 0648ms total)
T20A8 001:031 JLINK_WriteReg(R12, 0x00000000)  returns 0x00 (0000ms, 0648ms total)
T20A8 001:031 JLINK_WriteReg(R13 (SP), 0x20000800)  returns 0x00 (0000ms, 0648ms total)
T20A8 001:031 JLINK_WriteReg(R14, 0x20000001)  returns 0x00 (0000ms, 0648ms total)
T20A8 001:031 JLINK_WriteReg(R15 (PC), 0x200000F4)  returns 0x00 (0000ms, 0648ms total)
T20A8 001:031 JLINK_WriteReg(XPSR, 0x01000000)  returns 0x00 (0000ms, 0648ms total)
T20A8 001:031 JLINK_WriteReg(MSP, 0x20000800)  returns 0x00 (0000ms, 0648ms total)
T20A8 001:031 JLINK_WriteReg(PSP, 0x20000800)  returns 0x00 (0000ms, 0648ms total)
T20A8 001:031 JLINK_WriteReg(CFBP, 0x00000000)  returns 0x00 (0000ms, 0648ms total)
T20A8 001:031 JLINK_SetBPEx(Addr = 0x20000000, Type = 0xFFFFFFF2)  returns 0x00000006 (0000ms, 0648ms total)
T20A8 001:031 JLINK_Go() (0002ms, 0650ms total)
T20A8 001:033 JLINK_IsHalted()  returns FALSE (0000ms, 0650ms total)
T20A8 001:044 JLINK_IsHalted()  returns FALSE (0000ms, 0650ms total)
T20A8 001:046 JLINK_IsHalted()  returns FALSE (0000ms, 0650ms total)
T20A8 001:048 JLINK_IsHalted()  returns FALSE (0000ms, 0650ms total)
T20A8 001:050 JLINK_IsHalted()  returns FALSE (0000ms, 0650ms total)
T20A8 001:052 JLINK_IsHalted()  returns FALSE (0000ms, 0650ms total)
T20A8 001:074 JLINK_IsHalted() -- CPU_ReadMem(2 bytes @ 0x20000000)  returns TRUE (0003ms, 0653ms total)
T20A8 001:077 JLINK_ReadReg(R15 (PC))  returns 0x20000000 (0000ms, 0650ms total)
T20A8 001:077 JLINK_ClrBPEx(BPHandle = 0x00000006)  returns 0x00 (0000ms, 0650ms total)
T20A8 001:077 JLINK_ReadReg(R0)  returns 0x00000000 (0000ms, 0650ms total)
T20A8 001:078 JLINK_WriteMem(0x20000164, 0x0400 Bytes, ...) -- Data:  00 BF 00 BF 70 47 10 B5 01 46 00 22 00 23 00 20 ... -- CPU_WriteMem(1024 bytes @ 0x20000164)  returns 0x400 (0008ms, 0658ms total)
T20A8 001:086 JLINK_WriteReg(R0, 0x08000800)  returns 0x00 (0000ms, 0658ms total)
T20A8 001:086 JLINK_WriteReg(R1, 0x00000400)  returns 0x00 (0000ms, 0658ms total)
T20A8 001:086 JLINK_WriteReg(R2, 0x20000164)  returns 0x00 (0000ms, 0658ms total)
T20A8 001:086 JLINK_WriteReg(R3, 0x00000000)  returns 0x00 (0000ms, 0658ms total)
T20A8 001:086 JLINK_WriteReg(R4, 0x00000000)  returns 0x00 (0000ms, 0658ms total)
T20A8 001:086 JLINK_WriteReg(R5, 0x00000000)  returns 0x00 (0000ms, 0658ms total)
T20A8 001:086 JLINK_WriteReg(R6, 0x00000000)  returns 0x00 (0000ms, 0658ms total)
T20A8 001:086 JLINK_WriteReg(R7, 0x00000000)  returns 0x00 (0000ms, 0658ms total)
T20A8 001:086 JLINK_WriteReg(R8, 0x00000000)  returns 0x00 (0000ms, 0658ms total)
T20A8 001:086 JLINK_WriteReg(R9, 0x20000160)  returns 0x00 (0000ms, 0658ms total)
T20A8 001:086 JLINK_WriteReg(R10, 0x00000000)  returns 0x00 (0000ms, 0658ms total)
T20A8 001:086 JLINK_WriteReg(R11, 0x00000000)  returns 0x00 (0000ms, 0658ms total)
T20A8 001:086 JLINK_WriteReg(R12, 0x00000000)  returns 0x00 (0000ms, 0658ms total)
T20A8 001:086 JLINK_WriteReg(R13 (SP), 0x20000800)  returns 0x00 (0000ms, 0658ms total)
T20A8 001:086 JLINK_WriteReg(R14, 0x20000001)  returns 0x00 (0000ms, 0658ms total)
T20A8 001:086 JLINK_WriteReg(R15 (PC), 0x200000F4)  returns 0x00 (0000ms, 0658ms total)
T20A8 001:086 JLINK_WriteReg(XPSR, 0x01000000)  returns 0x00 (0000ms, 0658ms total)
T20A8 001:086 JLINK_WriteReg(MSP, 0x20000800)  returns 0x00 (0000ms, 0658ms total)
T20A8 001:086 JLINK_WriteReg(PSP, 0x20000800)  returns 0x00 (0000ms, 0658ms total)
T20A8 001:086 JLINK_WriteReg(CFBP, 0x00000000)  returns 0x00 (0000ms, 0658ms total)
T20A8 001:086 JLINK_SetBPEx(Addr = 0x20000000, Type = 0xFFFFFFF2)  returns 0x00000007 (0000ms, 0658ms total)
T20A8 001:086 JLINK_Go() (0002ms, 0660ms total)
T20A8 001:088 JLINK_IsHalted()  returns FALSE (0001ms, 0661ms total)
T20A8 001:106 JLINK_IsHalted()  returns FALSE (0000ms, 0660ms total)
T20A8 001:108 JLINK_IsHalted()  returns FALSE (0000ms, 0660ms total)
T20A8 001:110 JLINK_IsHalted()  returns FALSE (0000ms, 0660ms total)
T20A8 001:113 JLINK_IsHalted()  returns FALSE (0000ms, 0660ms total)
T20A8 001:118 JLINK_IsHalted()  returns FALSE (0000ms, 0660ms total)
T20A8 001:120 JLINK_IsHalted() -- CPU_ReadMem(2 bytes @ 0x20000000)  returns TRUE (0003ms, 0663ms total)
T20A8 001:123 JLINK_ReadReg(R15 (PC))  returns 0x20000000 (0000ms, 0660ms total)
T20A8 001:123 JLINK_ClrBPEx(BPHandle = 0x00000007)  returns 0x00 (0000ms, 0660ms total)
T20A8 001:123 JLINK_ReadReg(R0)  returns 0x00000000 (0000ms, 0660ms total)
T20A8 001:123 JLINK_WriteMem(0x20000164, 0x0400 Bytes, ...) -- Data:  63 E0 D0 48 84 42 09 D1 01 21 08 05 FF F7 40 FF ... -- CPU_WriteMem(1024 bytes @ 0x20000164)  returns 0x400 (0008ms, 0668ms total)
T20A8 001:131 JLINK_WriteReg(R0, 0x08000C00)  returns 0x00 (0000ms, 0668ms total)
T20A8 001:131 JLINK_WriteReg(R1, 0x00000400)  returns 0x00 (0000ms, 0668ms total)
T20A8 001:131 JLINK_WriteReg(R2, 0x20000164)  returns 0x00 (0000ms, 0668ms total)
T20A8 001:131 JLINK_WriteReg(R3, 0x00000000)  returns 0x00 (0000ms, 0668ms total)
T20A8 001:131 JLINK_WriteReg(R4, 0x00000000)  returns 0x00 (0000ms, 0668ms total)
T20A8 001:131 JLINK_WriteReg(R5, 0x00000000)  returns 0x00 (0000ms, 0668ms total)
T20A8 001:131 JLINK_WriteReg(R6, 0x00000000)  returns 0x00 (0000ms, 0668ms total)
T20A8 001:131 JLINK_WriteReg(R7, 0x00000000)  returns 0x00 (0000ms, 0668ms total)
T20A8 001:131 JLINK_WriteReg(R8, 0x00000000)  returns 0x00 (0000ms, 0668ms total)
T20A8 001:131 JLINK_WriteReg(R9, 0x20000160)  returns 0x00 (0000ms, 0668ms total)
T20A8 001:131 JLINK_WriteReg(R10, 0x00000000)  returns 0x00 (0000ms, 0668ms total)
T20A8 001:131 JLINK_WriteReg(R11, 0x00000000)  returns 0x00 (0000ms, 0668ms total)
T20A8 001:131 JLINK_WriteReg(R12, 0x00000000)  returns 0x00 (0000ms, 0668ms total)
T20A8 001:131 JLINK_WriteReg(R13 (SP), 0x20000800)  returns 0x00 (0000ms, 0668ms total)
T20A8 001:131 JLINK_WriteReg(R14, 0x20000001)  returns 0x00 (0000ms, 0668ms total)
T20A8 001:131 JLINK_WriteReg(R15 (PC), 0x200000F4)  returns 0x00 (0000ms, 0668ms total)
T20A8 001:131 JLINK_WriteReg(XPSR, 0x01000000)  returns 0x00 (0000ms, 0668ms total)
T20A8 001:131 JLINK_WriteReg(MSP, 0x20000800)  returns 0x00 (0000ms, 0668ms total)
T20A8 001:131 JLINK_WriteReg(PSP, 0x20000800)  returns 0x00 (0000ms, 0668ms total)
T20A8 001:131 JLINK_WriteReg(CFBP, 0x00000000)  returns 0x00 (0000ms, 0668ms total)
T20A8 001:131 JLINK_SetBPEx(Addr = 0x20000000, Type = 0xFFFFFFF2)  returns 0x00000008 (0000ms, 0668ms total)
T20A8 001:131 JLINK_Go() (0002ms, 0670ms total)
T20A8 001:133 JLINK_IsHalted()  returns FALSE (0000ms, 0670ms total)
T20A8 001:138 JLINK_IsHalted()  returns FALSE (0000ms, 0670ms total)
T20A8 001:140 JLINK_IsHalted()  returns FALSE (0000ms, 0670ms total)
T20A8 001:142 JLINK_IsHalted()  returns FALSE (0000ms, 0670ms total)
T20A8 001:147 JLINK_IsHalted()  returns FALSE (0000ms, 0670ms total)
T20A8 001:149 JLINK_IsHalted()  returns FALSE (0000ms, 0670ms total)
T20A8 001:151 JLINK_IsHalted()  returns FALSE (0000ms, 0670ms total)
T20A8 001:153 JLINK_IsHalted()  returns FALSE (0000ms, 0670ms total)
T20A8 001:155 JLINK_IsHalted()  returns FALSE (0000ms, 0670ms total)
T20A8 001:157 JLINK_IsHalted()  returns FALSE (0000ms, 0670ms total)
T20A8 001:159 JLINK_IsHalted()  returns FALSE (0000ms, 0670ms total)
T20A8 001:161 JLINK_IsHalted()  returns FALSE (0000ms, 0670ms total)
T20A8 001:166 JLINK_IsHalted() -- CPU_ReadMem(2 bytes @ 0x20000000)  returns TRUE (0003ms, 0673ms total)
T20A8 001:169 JLINK_ReadReg(R15 (PC))  returns 0x20000000 (0000ms, 0670ms total)
T20A8 001:169 JLINK_ClrBPEx(BPHandle = 0x00000008)  returns 0x00 (0000ms, 0670ms total)
T20A8 001:169 JLINK_ReadReg(R0)  returns 0x00000000 (0000ms, 0670ms total)
T20A8 001:169 JLINK_WriteMem(0x20000164, 0x0400 Bytes, ...) -- Data:  FF 77 07 EA 03 37 3A 43 D9 4F B8 42 0E D0 D9 4F ... -- CPU_WriteMem(1024 bytes @ 0x20000164)  returns 0x400 (0008ms, 0678ms total)
T20A8 001:177 JLINK_WriteReg(R0, 0x08001000)  returns 0x00 (0000ms, 0678ms total)
T20A8 001:177 JLINK_WriteReg(R1, 0x00000400)  returns 0x00 (0000ms, 0678ms total)
T20A8 001:177 JLINK_WriteReg(R2, 0x20000164)  returns 0x00 (0000ms, 0678ms total)
T20A8 001:177 JLINK_WriteReg(R3, 0x00000000)  returns 0x00 (0000ms, 0678ms total)
T20A8 001:177 JLINK_WriteReg(R4, 0x00000000)  returns 0x00 (0000ms, 0678ms total)
T20A8 001:177 JLINK_WriteReg(R5, 0x00000000)  returns 0x00 (0000ms, 0678ms total)
T20A8 001:177 JLINK_WriteReg(R6, 0x00000000)  returns 0x00 (0000ms, 0678ms total)
T20A8 001:177 JLINK_WriteReg(R7, 0x00000000)  returns 0x00 (0000ms, 0678ms total)
T20A8 001:177 JLINK_WriteReg(R8, 0x00000000)  returns 0x00 (0000ms, 0678ms total)
T20A8 001:177 JLINK_WriteReg(R9, 0x20000160)  returns 0x00 (0000ms, 0678ms total)
T20A8 001:177 JLINK_WriteReg(R10, 0x00000000)  returns 0x00 (0000ms, 0678ms total)
T20A8 001:177 JLINK_WriteReg(R11, 0x00000000)  returns 0x00 (0000ms, 0678ms total)
T20A8 001:177 JLINK_WriteReg(R12, 0x00000000)  returns 0x00 (0000ms, 0678ms total)
T20A8 001:177 JLINK_WriteReg(R13 (SP), 0x20000800)  returns 0x00 (0000ms, 0678ms total)
T20A8 001:177 JLINK_WriteReg(R14, 0x20000001)  returns 0x00 (0000ms, 0678ms total)
T20A8 001:177 JLINK_WriteReg(R15 (PC), 0x200000F4)  returns 0x00 (0000ms, 0678ms total)
T20A8 001:177 JLINK_WriteReg(XPSR, 0x01000000)  returns 0x00 (0000ms, 0678ms total)
T20A8 001:177 JLINK_WriteReg(MSP, 0x20000800)  returns 0x00 (0000ms, 0678ms total)
T20A8 001:177 JLINK_WriteReg(PSP, 0x20000800)  returns 0x00 (0000ms, 0678ms total)
T20A8 001:177 JLINK_WriteReg(CFBP, 0x00000000)  returns 0x00 (0000ms, 0678ms total)
T20A8 001:177 JLINK_SetBPEx(Addr = 0x20000000, Type = 0xFFFFFFF2)  returns 0x00000009 (0000ms, 0678ms total)
T20A8 001:177 JLINK_Go() (0002ms, 0680ms total)
T20A8 001:179 JLINK_IsHalted()  returns FALSE (0000ms, 0680ms total)
T20A8 001:184 JLINK_IsHalted()  returns FALSE (0000ms, 0680ms total)
T20A8 001:187 JLINK_IsHalted()  returns FALSE (0000ms, 0680ms total)
T20A8 001:189 JLINK_IsHalted()  returns FALSE (0000ms, 0680ms total)
T20A8 001:191 JLINK_IsHalted()  returns FALSE (0000ms, 0680ms total)
T20A8 001:193 JLINK_IsHalted()  returns FALSE (0000ms, 0680ms total)
T20A8 001:195 JLINK_IsHalted()  returns FALSE (0000ms, 0680ms total)
T20A8 001:216 JLINK_IsHalted() -- CPU_ReadMem(2 bytes @ 0x20000000)  returns TRUE (0004ms, 0684ms total)
T20A8 001:220 JLINK_ReadReg(R15 (PC))  returns 0x20000000 (0000ms, 0680ms total)
T20A8 001:220 JLINK_ClrBPEx(BPHandle = 0x00000009)  returns 0x00 (0000ms, 0680ms total)
T20A8 001:220 JLINK_ReadReg(R0)  returns 0x00000000 (0000ms, 0680ms total)
T20A8 001:221 JLINK_WriteMem(0x20000164, 0x0400 Bytes, ...) -- Data:  8F 73 19 40 11 43 01 81 70 47 30 B5 04 46 0D 46 ... -- CPU_WriteMem(1024 bytes @ 0x20000164)  returns 0x400 (0008ms, 0688ms total)
T20A8 001:229 JLINK_WriteReg(R0, 0x08001400)  returns 0x00 (0000ms, 0688ms total)
T20A8 001:229 JLINK_WriteReg(R1, 0x00000400)  returns 0x00 (0000ms, 0688ms total)
T20A8 001:229 JLINK_WriteReg(R2, 0x20000164)  returns 0x00 (0000ms, 0688ms total)
T20A8 001:229 JLINK_WriteReg(R3, 0x00000000)  returns 0x00 (0000ms, 0688ms total)
T20A8 001:229 JLINK_WriteReg(R4, 0x00000000)  returns 0x00 (0000ms, 0688ms total)
T20A8 001:229 JLINK_WriteReg(R5, 0x00000000)  returns 0x00 (0000ms, 0688ms total)
T20A8 001:229 JLINK_WriteReg(R6, 0x00000000)  returns 0x00 (0000ms, 0688ms total)
T20A8 001:229 JLINK_WriteReg(R7, 0x00000000)  returns 0x00 (0000ms, 0688ms total)
T20A8 001:229 JLINK_WriteReg(R8, 0x00000000)  returns 0x00 (0000ms, 0688ms total)
T20A8 001:229 JLINK_WriteReg(R9, 0x20000160)  returns 0x00 (0000ms, 0688ms total)
T20A8 001:229 JLINK_WriteReg(R10, 0x00000000)  returns 0x00 (0000ms, 0688ms total)
T20A8 001:229 JLINK_WriteReg(R11, 0x00000000)  returns 0x00 (0000ms, 0688ms total)
T20A8 001:229 JLINK_WriteReg(R12, 0x00000000)  returns 0x00 (0000ms, 0688ms total)
T20A8 001:229 JLINK_WriteReg(R13 (SP), 0x20000800)  returns 0x00 (0000ms, 0688ms total)
T20A8 001:229 JLINK_WriteReg(R14, 0x20000001)  returns 0x00 (0000ms, 0688ms total)
T20A8 001:229 JLINK_WriteReg(R15 (PC), 0x200000F4)  returns 0x00 (0000ms, 0688ms total)
T20A8 001:229 JLINK_WriteReg(XPSR, 0x01000000)  returns 0x00 (0000ms, 0688ms total)
T20A8 001:229 JLINK_WriteReg(MSP, 0x20000800)  returns 0x00 (0000ms, 0688ms total)
T20A8 001:229 JLINK_WriteReg(PSP, 0x20000800)  returns 0x00 (0000ms, 0688ms total)
T20A8 001:229 JLINK_WriteReg(CFBP, 0x00000000)  returns 0x00 (0001ms, 0689ms total)
T20A8 001:230 JLINK_SetBPEx(Addr = 0x20000000, Type = 0xFFFFFFF2)  returns 0x0000000A (0000ms, 0689ms total)
T20A8 001:230 JLINK_Go() (0001ms, 0690ms total)
T20A8 001:231 JLINK_IsHalted()  returns FALSE (0001ms, 0691ms total)
T20A8 001:237 JLINK_IsHalted()  returns FALSE (0000ms, 0690ms total)
T20A8 001:239 JLINK_IsHalted()  returns FALSE (0000ms, 0690ms total)
T20A8 001:241 JLINK_IsHalted()  returns FALSE (0000ms, 0690ms total)
T20A8 001:248 JLINK_IsHalted()  returns FALSE (0000ms, 0690ms total)
T20A8 001:250 JLINK_IsHalted()  returns FALSE (0000ms, 0690ms total)
T20A8 001:252 JLINK_IsHalted()  returns FALSE (0000ms, 0690ms total)
T20A8 001:254 JLINK_IsHalted()  returns FALSE (0000ms, 0690ms total)
T20A8 001:256 JLINK_IsHalted()  returns FALSE (0000ms, 0690ms total)
T20A8 001:258 JLINK_IsHalted()  returns FALSE (0000ms, 0690ms total)
T20A8 001:260 JLINK_IsHalted()  returns FALSE (0000ms, 0690ms total)
T20A8 001:269 JLINK_IsHalted() -- CPU_ReadMem(2 bytes @ 0x20000000)  returns TRUE (0004ms, 0694ms total)
T20A8 001:273 JLINK_ReadReg(R15 (PC))  returns 0x20000000 (0000ms, 0690ms total)
T20A8 001:273 JLINK_ClrBPEx(BPHandle = 0x0000000A)  returns 0x00 (0000ms, 0690ms total)
T20A8 001:273 JLINK_ReadReg(R0)  returns 0x00000000 (0000ms, 0690ms total)
T20A8 001:275 JLINK_WriteMem(0x20000164, 0x0400 Bytes, ...) -- Data:  4E 05 28 44 05 68 25 F4 E0 45 05 60 05 68 4F F6 ... -- CPU_WriteMem(1024 bytes @ 0x20000164)  returns 0x400 (0008ms, 0698ms total)
T20A8 001:283 JLINK_WriteReg(R0, 0x08001800)  returns 0x00 (0000ms, 0698ms total)
T20A8 001:283 JLINK_WriteReg(R1, 0x00000400)  returns 0x00 (0000ms, 0698ms total)
T20A8 001:283 JLINK_WriteReg(R2, 0x20000164)  returns 0x00 (0000ms, 0698ms total)
T20A8 001:283 JLINK_WriteReg(R3, 0x00000000)  returns 0x00 (0000ms, 0698ms total)
T20A8 001:283 JLINK_WriteReg(R4, 0x00000000)  returns 0x00 (0000ms, 0698ms total)
T20A8 001:283 JLINK_WriteReg(R5, 0x00000000)  returns 0x00 (0000ms, 0698ms total)
T20A8 001:283 JLINK_WriteReg(R6, 0x00000000)  returns 0x00 (0000ms, 0698ms total)
T20A8 001:283 JLINK_WriteReg(R7, 0x00000000)  returns 0x00 (0000ms, 0698ms total)
T20A8 001:283 JLINK_WriteReg(R8, 0x00000000)  returns 0x00 (0000ms, 0698ms total)
T20A8 001:283 JLINK_WriteReg(R9, 0x20000160)  returns 0x00 (0000ms, 0698ms total)
T20A8 001:283 JLINK_WriteReg(R10, 0x00000000)  returns 0x00 (0000ms, 0698ms total)
T20A8 001:283 JLINK_WriteReg(R11, 0x00000000)  returns 0x00 (0000ms, 0698ms total)
T20A8 001:283 JLINK_WriteReg(R12, 0x00000000)  returns 0x00 (0000ms, 0698ms total)
T20A8 001:283 JLINK_WriteReg(R13 (SP), 0x20000800)  returns 0x00 (0001ms, 0699ms total)
T20A8 001:284 JLINK_WriteReg(R14, 0x20000001)  returns 0x00 (0000ms, 0699ms total)
T20A8 001:284 JLINK_WriteReg(R15 (PC), 0x200000F4)  returns 0x00 (0000ms, 0699ms total)
T20A8 001:284 JLINK_WriteReg(XPSR, 0x01000000)  returns 0x00 (0000ms, 0699ms total)
T20A8 001:284 JLINK_WriteReg(MSP, 0x20000800)  returns 0x00 (0000ms, 0699ms total)
T20A8 001:284 JLINK_WriteReg(PSP, 0x20000800)  returns 0x00 (0000ms, 0699ms total)
T20A8 001:284 JLINK_WriteReg(CFBP, 0x00000000)  returns 0x00 (0000ms, 0699ms total)
T20A8 001:284 JLINK_SetBPEx(Addr = 0x20000000, Type = 0xFFFFFFF2)  returns 0x0000000B (0000ms, 0699ms total)
T20A8 001:284 JLINK_Go() (0001ms, 0700ms total)
T20A8 001:286 JLINK_IsHalted()  returns FALSE (0000ms, 0701ms total)
T20A8 001:302 JLINK_IsHalted()  returns FALSE (0000ms, 0701ms total)
T20A8 001:304 JLINK_IsHalted()  returns FALSE (0000ms, 0701ms total)
T20A8 001:342 JLINK_IsHalted() -- CPU_ReadMem(2 bytes @ 0x20000000)  returns TRUE (0003ms, 0704ms total)
T20A8 001:345 JLINK_ReadReg(R15 (PC))  returns 0x20000000 (0000ms, 0701ms total)
T20A8 001:345 JLINK_ClrBPEx(BPHandle = 0x0000000B)  returns 0x00 (0000ms, 0701ms total)
T20A8 001:345 JLINK_ReadReg(R0)  returns 0x00000000 (0001ms, 0702ms total)
T20A8 001:346 JLINK_WriteMem(0x20000164, 0x0400 Bytes, ...) -- Data:  82 8A 4F F6 DF 73 1A 40 82 82 70 47 21 B1 82 8A ... -- CPU_WriteMem(1024 bytes @ 0x20000164)  returns 0x400 (0009ms, 0711ms total)
T20A8 001:355 JLINK_WriteReg(R0, 0x08001C00)  returns 0x00 (0000ms, 0711ms total)
T20A8 001:355 JLINK_WriteReg(R1, 0x00000400)  returns 0x00 (0000ms, 0711ms total)
T20A8 001:355 JLINK_WriteReg(R2, 0x20000164)  returns 0x00 (0000ms, 0711ms total)
T20A8 001:355 JLINK_WriteReg(R3, 0x00000000)  returns 0x00 (0000ms, 0711ms total)
T20A8 001:355 JLINK_WriteReg(R4, 0x00000000)  returns 0x00 (0000ms, 0711ms total)
T20A8 001:355 JLINK_WriteReg(R5, 0x00000000)  returns 0x00 (0000ms, 0711ms total)
T20A8 001:355 JLINK_WriteReg(R6, 0x00000000)  returns 0x00 (0000ms, 0711ms total)
T20A8 001:355 JLINK_WriteReg(R7, 0x00000000)  returns 0x00 (0000ms, 0711ms total)
T20A8 001:355 JLINK_WriteReg(R8, 0x00000000)  returns 0x00 (0000ms, 0711ms total)
T20A8 001:355 JLINK_WriteReg(R9, 0x20000160)  returns 0x00 (0000ms, 0711ms total)
T20A8 001:355 JLINK_WriteReg(R10, 0x00000000)  returns 0x00 (0000ms, 0711ms total)
T20A8 001:355 JLINK_WriteReg(R11, 0x00000000)  returns 0x00 (0000ms, 0711ms total)
T20A8 001:355 JLINK_WriteReg(R12, 0x00000000)  returns 0x00 (0000ms, 0711ms total)
T20A8 001:355 JLINK_WriteReg(R13 (SP), 0x20000800)  returns 0x00 (0000ms, 0711ms total)
T20A8 001:355 JLINK_WriteReg(R14, 0x20000001)  returns 0x00 (0000ms, 0711ms total)
T20A8 001:355 JLINK_WriteReg(R15 (PC), 0x200000F4)  returns 0x00 (0000ms, 0711ms total)
T20A8 001:355 JLINK_WriteReg(XPSR, 0x01000000)  returns 0x00 (0000ms, 0711ms total)
T20A8 001:355 JLINK_WriteReg(MSP, 0x20000800)  returns 0x00 (0000ms, 0711ms total)
T20A8 001:355 JLINK_WriteReg(PSP, 0x20000800)  returns 0x00 (0000ms, 0711ms total)
T20A8 001:355 JLINK_WriteReg(CFBP, 0x00000000)  returns 0x00 (0000ms, 0711ms total)
T20A8 001:355 JLINK_SetBPEx(Addr = 0x20000000, Type = 0xFFFFFFF2)  returns 0x0000000C (0000ms, 0711ms total)
T20A8 001:355 JLINK_Go() (0002ms, 0713ms total)
T20A8 001:357 JLINK_IsHalted()  returns FALSE (0000ms, 0713ms total)
T20A8 001:373 JLINK_IsHalted()  returns FALSE (0000ms, 0713ms total)
T20A8 001:375 JLINK_IsHalted()  returns FALSE (0001ms, 0714ms total)
T20A8 001:378 JLINK_IsHalted()  returns FALSE (0000ms, 0713ms total)
T20A8 001:386 JLINK_IsHalted()  returns FALSE (0000ms, 0713ms total)
T20A8 001:388 JLINK_IsHalted() -- CPU_ReadMem(2 bytes @ 0x20000000)  returns TRUE (0003ms, 0716ms total)
T20A8 001:391 JLINK_ReadReg(R15 (PC))  returns 0x20000000 (0000ms, 0713ms total)
T20A8 001:391 JLINK_ClrBPEx(BPHandle = 0x0000000C)  returns 0x00 (0000ms, 0713ms total)
T20A8 001:391 JLINK_ReadReg(R0)  returns 0x00000000 (0000ms, 0713ms total)
T20A8 001:392 JLINK_WriteMem(0x20000164, 0x0400 Bytes, ...) -- Data:  A8 F9 08 BD 00 20 03 E0 00 21 57 4A 11 54 40 1C ... -- CPU_WriteMem(1024 bytes @ 0x20000164)  returns 0x400 (0008ms, 0721ms total)
T20A8 001:400 JLINK_WriteReg(R0, 0x08002000)  returns 0x00 (0000ms, 0721ms total)
T20A8 001:400 JLINK_WriteReg(R1, 0x00000400)  returns 0x00 (0001ms, 0722ms total)
T20A8 001:401 JLINK_WriteReg(R2, 0x20000164)  returns 0x00 (0000ms, 0722ms total)
T20A8 001:401 JLINK_WriteReg(R3, 0x00000000)  returns 0x00 (0000ms, 0722ms total)
T20A8 001:401 JLINK_WriteReg(R4, 0x00000000)  returns 0x00 (0000ms, 0722ms total)
T20A8 001:401 JLINK_WriteReg(R5, 0x00000000)  returns 0x00 (0000ms, 0722ms total)
T20A8 001:401 JLINK_WriteReg(R6, 0x00000000)  returns 0x00 (0000ms, 0722ms total)
T20A8 001:401 JLINK_WriteReg(R7, 0x00000000)  returns 0x00 (0000ms, 0722ms total)
T20A8 001:401 JLINK_WriteReg(R8, 0x00000000)  returns 0x00 (0000ms, 0722ms total)
T20A8 001:401 JLINK_WriteReg(R9, 0x20000160)  returns 0x00 (0000ms, 0722ms total)
T20A8 001:401 JLINK_WriteReg(R10, 0x00000000)  returns 0x00 (0000ms, 0722ms total)
T20A8 001:401 JLINK_WriteReg(R11, 0x00000000)  returns 0x00 (0000ms, 0722ms total)
T20A8 001:401 JLINK_WriteReg(R12, 0x00000000)  returns 0x00 (0000ms, 0722ms total)
T20A8 001:401 JLINK_WriteReg(R13 (SP), 0x20000800)  returns 0x00 (0000ms, 0722ms total)
T20A8 001:401 JLINK_WriteReg(R14, 0x20000001)  returns 0x00 (0000ms, 0722ms total)
T20A8 001:401 JLINK_WriteReg(R15 (PC), 0x200000F4)  returns 0x00 (0000ms, 0722ms total)
T20A8 001:401 JLINK_WriteReg(XPSR, 0x01000000)  returns 0x00 (0000ms, 0722ms total)
T20A8 001:401 JLINK_WriteReg(MSP, 0x20000800)  returns 0x00 (0000ms, 0722ms total)
T20A8 001:401 JLINK_WriteReg(PSP, 0x20000800)  returns 0x00 (0000ms, 0722ms total)
T20A8 001:401 JLINK_WriteReg(CFBP, 0x00000000)  returns 0x00 (0000ms, 0722ms total)
T20A8 001:401 JLINK_SetBPEx(Addr = 0x20000000, Type = 0xFFFFFFF2)  returns 0x0000000D (0000ms, 0722ms total)
T20A8 001:401 JLINK_Go() (0001ms, 0723ms total)
T20A8 001:402 JLINK_IsHalted()  returns FALSE (0001ms, 0724ms total)
T20A8 001:411 JLINK_IsHalted()  returns FALSE (0000ms, 0723ms total)
T20A8 001:424 JLINK_IsHalted()  returns FALSE (0000ms, 0723ms total)
T20A8 001:426 JLINK_IsHalted()  returns FALSE (0000ms, 0723ms total)
T20A8 001:428 JLINK_IsHalted()  returns FALSE (0000ms, 0723ms total)
T20A8 001:430 JLINK_IsHalted()  returns FALSE (0000ms, 0723ms total)
T20A8 001:432 JLINK_IsHalted()  returns FALSE (0000ms, 0723ms total)
T20A8 001:438 JLINK_IsHalted() -- CPU_ReadMem(2 bytes @ 0x20000000)  returns TRUE (0004ms, 0727ms total)
T20A8 001:442 JLINK_ReadReg(R15 (PC))  returns 0x20000000 (0000ms, 0723ms total)
T20A8 001:442 JLINK_ClrBPEx(BPHandle = 0x0000000D)  returns 0x00 (0000ms, 0723ms total)
T20A8 001:442 JLINK_ReadReg(R0)  returns 0x00000000 (0000ms, 0723ms total)
T20A8 001:442 JLINK_WriteMem(0x20000164, 0x0400 Bytes, ...) -- Data:  70 1E 40 1B C1 B2 0A 20 FF F7 9A FF 09 F1 01 01 ... -- CPU_WriteMem(1024 bytes @ 0x20000164)  returns 0x400 (0008ms, 0731ms total)
T20A8 001:450 JLINK_WriteReg(R0, 0x08002400)  returns 0x00 (0000ms, 0731ms total)
T20A8 001:450 JLINK_WriteReg(R1, 0x00000400)  returns 0x00 (0000ms, 0731ms total)
T20A8 001:450 JLINK_WriteReg(R2, 0x20000164)  returns 0x00 (0000ms, 0731ms total)
T20A8 001:450 JLINK_WriteReg(R3, 0x00000000)  returns 0x00 (0000ms, 0731ms total)
T20A8 001:450 JLINK_WriteReg(R4, 0x00000000)  returns 0x00 (0000ms, 0731ms total)
T20A8 001:450 JLINK_WriteReg(R5, 0x00000000)  returns 0x00 (0000ms, 0731ms total)
T20A8 001:450 JLINK_WriteReg(R6, 0x00000000)  returns 0x00 (0000ms, 0731ms total)
T20A8 001:450 JLINK_WriteReg(R7, 0x00000000)  returns 0x00 (0000ms, 0731ms total)
T20A8 001:450 JLINK_WriteReg(R8, 0x00000000)  returns 0x00 (0000ms, 0731ms total)
T20A8 001:450 JLINK_WriteReg(R9, 0x20000160)  returns 0x00 (0000ms, 0731ms total)
T20A8 001:450 JLINK_WriteReg(R10, 0x00000000)  returns 0x00 (0000ms, 0731ms total)
T20A8 001:450 JLINK_WriteReg(R11, 0x00000000)  returns 0x00 (0000ms, 0731ms total)
T20A8 001:450 JLINK_WriteReg(R12, 0x00000000)  returns 0x00 (0000ms, 0731ms total)
T20A8 001:450 JLINK_WriteReg(R13 (SP), 0x20000800)  returns 0x00 (0000ms, 0731ms total)
T20A8 001:450 JLINK_WriteReg(R14, 0x20000001)  returns 0x00 (0000ms, 0731ms total)
T20A8 001:451 JLINK_WriteReg(R15 (PC), 0x200000F4)  returns 0x00 (0000ms, 0732ms total)
T20A8 001:451 JLINK_WriteReg(XPSR, 0x01000000)  returns 0x00 (0000ms, 0732ms total)
T20A8 001:451 JLINK_WriteReg(MSP, 0x20000800)  returns 0x00 (0000ms, 0732ms total)
T20A8 001:451 JLINK_WriteReg(PSP, 0x20000800)  returns 0x00 (0000ms, 0732ms total)
T20A8 001:451 JLINK_WriteReg(CFBP, 0x00000000)  returns 0x00 (0000ms, 0732ms total)
T20A8 001:451 JLINK_SetBPEx(Addr = 0x20000000, Type = 0xFFFFFFF2)  returns 0x0000000E (0000ms, 0732ms total)
T20A8 001:451 JLINK_Go() (0001ms, 0733ms total)
T20A8 001:452 JLINK_IsHalted()  returns FALSE (0002ms, 0735ms total)
T20A8 001:466 JLINK_IsHalted()  returns FALSE (0000ms, 0733ms total)
T20A8 001:468 JLINK_IsHalted()  returns FALSE (0000ms, 0733ms total)
T20A8 001:470 JLINK_IsHalted()  returns FALSE (0000ms, 0733ms total)
T20A8 001:472 JLINK_IsHalted()  returns FALSE (0000ms, 0733ms total)
T20A8 001:478 JLINK_IsHalted()  returns FALSE (0000ms, 0733ms total)
T20A8 001:480 JLINK_IsHalted()  returns FALSE (0000ms, 0733ms total)
T20A8 001:482 JLINK_IsHalted()  returns FALSE (0000ms, 0733ms total)
T20A8 001:484 JLINK_IsHalted() -- CPU_ReadMem(2 bytes @ 0x20000000)  returns TRUE (0003ms, 0736ms total)
T20A8 001:487 JLINK_ReadReg(R15 (PC))  returns 0x20000000 (0000ms, 0733ms total)
T20A8 001:487 JLINK_ClrBPEx(BPHandle = 0x0000000E)  returns 0x00 (0000ms, 0733ms total)
T20A8 001:487 JLINK_ReadReg(R0)  returns 0x00000000 (0000ms, 0733ms total)
T20A8 001:488 JLINK_WriteMem(0x20000164, 0x0400 Bytes, ...) -- Data:  00 20 17 49 08 80 23 E0 15 48 00 88 C0 F3 0D 00 ... -- CPU_WriteMem(1024 bytes @ 0x20000164)  returns 0x400 (0008ms, 0741ms total)
T20A8 001:496 JLINK_WriteReg(R0, 0x08002800)  returns 0x00 (0000ms, 0741ms total)
T20A8 001:496 JLINK_WriteReg(R1, 0x00000400)  returns 0x00 (0000ms, 0741ms total)
T20A8 001:496 JLINK_WriteReg(R2, 0x20000164)  returns 0x00 (0000ms, 0741ms total)
T20A8 001:496 JLINK_WriteReg(R3, 0x00000000)  returns 0x00 (0000ms, 0741ms total)
T20A8 001:496 JLINK_WriteReg(R4, 0x00000000)  returns 0x00 (0000ms, 0741ms total)
T20A8 001:496 JLINK_WriteReg(R5, 0x00000000)  returns 0x00 (0000ms, 0741ms total)
T20A8 001:496 JLINK_WriteReg(R6, 0x00000000)  returns 0x00 (0000ms, 0741ms total)
T20A8 001:496 JLINK_WriteReg(R7, 0x00000000)  returns 0x00 (0000ms, 0741ms total)
T20A8 001:496 JLINK_WriteReg(R8, 0x00000000)  returns 0x00 (0000ms, 0741ms total)
T20A8 001:496 JLINK_WriteReg(R9, 0x20000160)  returns 0x00 (0000ms, 0741ms total)
T20A8 001:496 JLINK_WriteReg(R10, 0x00000000)  returns 0x00 (0000ms, 0741ms total)
T20A8 001:496 JLINK_WriteReg(R11, 0x00000000)  returns 0x00 (0000ms, 0741ms total)
T20A8 001:496 JLINK_WriteReg(R12, 0x00000000)  returns 0x00 (0000ms, 0741ms total)
T20A8 001:496 JLINK_WriteReg(R13 (SP), 0x20000800)  returns 0x00 (0000ms, 0741ms total)
T20A8 001:496 JLINK_WriteReg(R14, 0x20000001)  returns 0x00 (0000ms, 0741ms total)
T20A8 001:496 JLINK_WriteReg(R15 (PC), 0x200000F4)  returns 0x00 (0000ms, 0741ms total)
T20A8 001:496 JLINK_WriteReg(XPSR, 0x01000000)  returns 0x00 (0000ms, 0741ms total)
T20A8 001:496 JLINK_WriteReg(MSP, 0x20000800)  returns 0x00 (0000ms, 0741ms total)
T20A8 001:496 JLINK_WriteReg(PSP, 0x20000800)  returns 0x00 (0000ms, 0741ms total)
T20A8 001:496 JLINK_WriteReg(CFBP, 0x00000000)  returns 0x00 (0000ms, 0741ms total)
T20A8 001:496 JLINK_SetBPEx(Addr = 0x20000000, Type = 0xFFFFFFF2)  returns 0x0000000F (0000ms, 0741ms total)
T20A8 001:496 JLINK_Go() (0001ms, 0742ms total)
T20A8 001:497 JLINK_IsHalted()  returns FALSE (0001ms, 0743ms total)
T20A8 001:502 JLINK_IsHalted()  returns FALSE (0000ms, 0742ms total)
T20A8 001:504 JLINK_IsHalted()  returns FALSE (0000ms, 0742ms total)
T20A8 001:506 JLINK_IsHalted()  returns FALSE (0000ms, 0742ms total)
T20A8 001:508 JLINK_IsHalted()  returns FALSE (0000ms, 0742ms total)
T20A8 001:513 JLINK_IsHalted()  returns FALSE (0000ms, 0742ms total)
T20A8 001:515 JLINK_IsHalted()  returns FALSE (0000ms, 0742ms total)
T20A8 001:517 JLINK_IsHalted()  returns FALSE (0000ms, 0742ms total)
T20A8 001:525 JLINK_IsHalted()  returns FALSE (0000ms, 0742ms total)
T20A8 001:527 JLINK_IsHalted()  returns FALSE (0000ms, 0742ms total)
T20A8 001:529 JLINK_IsHalted() -- CPU_ReadMem(2 bytes @ 0x20000000)  returns TRUE (0004ms, 0746ms total)
T20A8 001:533 JLINK_ReadReg(R15 (PC))  returns 0x20000000 (0000ms, 0742ms total)
T20A8 001:533 JLINK_ClrBPEx(BPHandle = 0x0000000F)  returns 0x00 (0000ms, 0742ms total)
T20A8 001:533 JLINK_ReadReg(R0)  returns 0x00000000 (0000ms, 0742ms total)
T20A8 001:533 JLINK_WriteMem(0x20000164, 0x0400 Bytes, ...) -- Data:  8D 49 09 88 40 1A 8D 49 09 68 08 44 8C 49 08 60 ... -- CPU_WriteMem(1024 bytes @ 0x20000164)  returns 0x400 (0008ms, 0750ms total)
T20A8 001:541 JLINK_WriteReg(R0, 0x08002C00)  returns 0x00 (0000ms, 0750ms total)
T20A8 001:541 JLINK_WriteReg(R1, 0x00000400)  returns 0x00 (0000ms, 0750ms total)
T20A8 001:541 JLINK_WriteReg(R2, 0x20000164)  returns 0x00 (0000ms, 0750ms total)
T20A8 001:541 JLINK_WriteReg(R3, 0x00000000)  returns 0x00 (0000ms, 0750ms total)
T20A8 001:541 JLINK_WriteReg(R4, 0x00000000)  returns 0x00 (0000ms, 0750ms total)
T20A8 001:541 JLINK_WriteReg(R5, 0x00000000)  returns 0x00 (0000ms, 0750ms total)
T20A8 001:541 JLINK_WriteReg(R6, 0x00000000)  returns 0x00 (0000ms, 0750ms total)
T20A8 001:541 JLINK_WriteReg(R7, 0x00000000)  returns 0x00 (0000ms, 0750ms total)
T20A8 001:541 JLINK_WriteReg(R8, 0x00000000)  returns 0x00 (0000ms, 0750ms total)
T20A8 001:541 JLINK_WriteReg(R9, 0x20000160)  returns 0x00 (0000ms, 0750ms total)
T20A8 001:541 JLINK_WriteReg(R10, 0x00000000)  returns 0x00 (0000ms, 0750ms total)
T20A8 001:541 JLINK_WriteReg(R11, 0x00000000)  returns 0x00 (0000ms, 0750ms total)
T20A8 001:541 JLINK_WriteReg(R12, 0x00000000)  returns 0x00 (0000ms, 0750ms total)
T20A8 001:541 JLINK_WriteReg(R13 (SP), 0x20000800)  returns 0x00 (0000ms, 0750ms total)
T20A8 001:541 JLINK_WriteReg(R14, 0x20000001)  returns 0x00 (0000ms, 0750ms total)
T20A8 001:541 JLINK_WriteReg(R15 (PC), 0x200000F4)  returns 0x00 (0000ms, 0750ms total)
T20A8 001:541 JLINK_WriteReg(XPSR, 0x01000000)  returns 0x00 (0000ms, 0750ms total)
T20A8 001:541 JLINK_WriteReg(MSP, 0x20000800)  returns 0x00 (0000ms, 0750ms total)
T20A8 001:541 JLINK_WriteReg(PSP, 0x20000800)  returns 0x00 (0000ms, 0750ms total)
T20A8 001:541 JLINK_WriteReg(CFBP, 0x00000000)  returns 0x00 (0000ms, 0750ms total)
T20A8 001:541 JLINK_SetBPEx(Addr = 0x20000000, Type = 0xFFFFFFF2)  returns 0x00000010 (0000ms, 0750ms total)
T20A8 001:541 JLINK_Go() (0002ms, 0752ms total)
T20A8 001:543 JLINK_IsHalted()  returns FALSE (0000ms, 0752ms total)
T20A8 001:547 JLINK_IsHalted()  returns FALSE (0000ms, 0752ms total)
T20A8 001:549 JLINK_IsHalted()  returns FALSE (0000ms, 0752ms total)
T20A8 001:551 JLINK_IsHalted()  returns FALSE (0001ms, 0753ms total)
T20A8 001:554 JLINK_IsHalted()  returns FALSE (0000ms, 0752ms total)
